============================================
  HMI Test Log - Sat Feb 21 09:33:08 PM CET 2026
============================================
CAN serial  : /dev/ttyACM1
NuttX serial: /dev/ttyACM0

--- NuttX Console Output ---
ERROR: Cannot enable drive - DC Link not ready (state=0)

--- CAN Bus Capture ---
  can0  0C03FE32   [1]  08
  can0  0C0B0032   [4]  70 84 0B 00
  can0  0C03FE32   [1]  08
  can0  0C03FE32   [1]  08
  can0  0C03FE32   [1]  08
  can0  0C03FE32   [1]  08
  can0  0C03FE32   [1]  08
  can0  0C03FE32   [1]  08
  can0  0C03FE32   [1]  08
  can0  0C03FE32   [1]  08
  can0  0C03FE32   [1]  08
  can0  0C03FE32   [1]  08
  can0  0C0B0032   [4]  62 88 0B 00
  can0  0C03FE32   [1]  08
  can0  0C03FE32   [1]  08
  can0  0C03FE32   [1]  08
  can0  0C03FE32   [1]  08
  can0  0C03FE32   [1]  08
  can0  0C03FE32   [1]  08
  can0  0C03FE32   [1]  08
  can0  0C03FE32   [1]  08
  can0  0C03FE32   [1]  08
  can0  0C0B0032   [4]  54 8C 0B 00
  can0  0C03FE32   [1]  08
  can0  0C03FE32   [1]  08
  can0  0C03FE32   [1]  08
  can0  0C03FE32   [1]  08
  can0  0C03FE32   [1]  08
  can0  0C03FE32   [1]  08
  can0  0C03FE32   [1]  08
  can0  0C03FE32   [1]  08
  can0  0C03FE32   [1]  08
  can0  0C0B0032   [4]  14 90 0B 00
  can0  0C03FE32   [1]  00
  can0  0C03FE32   [1]  00
  can0  0C03FE32   [1]  00
  can0  0C03FE32   [1]  00
  can0  0C03FE32   [1]  00
  can0  0C03FE32   [1]  00
  can0  0C03FE32   [1]  00
  can0  0C03FE32   [1]  00
  can0  0C03FE32   [1]  00
  can0  0C0B0032   [4]  06 94 0B 00
  can0  0C03FE32   [1]  00
  can0  0C03FE32   [1]  00
  can0  0C03FE32   [1]  00
  can0  0C03FE32   [1]  00
  can0  0C03FE32   [1]  00
  can0  0C03FE32   [1]  00
  can0  0C03FE32   [1]  00
  can0  0C03FE32   [1]  00
  can0  0C03FE32   [1]  00
  can0  0C0B0032   [4]  F8 97 0B 00
  can0  0C03FE32   [1]  00
  can0  0C03FE32   [1]  00
  can0  0C03FE32   [1]  00
  can0  0C03FE32   [1]  00
  can0  0C03FE32   [1]  00
  can0  0C03FE32   [1]  00
  can0  0C03FE32   [1]  00
  can0  0C03FE32   [1]  00
  can0  0C03FE32   [1]  00
  can0  0C0B0032   [4]  EA 9B 0B 00
  can0  0C03FE32   [1]  00
  can0  0C03FE32   [1]  00
  can0  0C03FE32   [1]  00
  can0  0C03FE32   [1]  00
  can0  0C03FE32   [1]  00
  can0  0C03FE32   [1]  00
  can0  0C03FE32   [1]  00
  can0  0C03FE32   [1]  00
  can0  0C03FE32   [1]  00
  can0  0C0B0032   [4]  DC 9F 0B 00
  can0  0C03FE32   [1]  00
  can0  0C03FE32   [1]  00
  can0  0C03FE32   [1]  00
  can0  0C03FE32   [1]  00
  can0  0C03FE32   [1]  00
  can0  0C03FE32   [1]  00
  can0  0C03FE32   [1]  00
  can0  0C03FE32   [1]  00
  can0  0C03FE32   [1]  00
  can0  0C0B0032   [4]  CE A3 0B 00
  can0  0C03FE32   [1]  00
  can0  0C03FE32   [1]  00
  can0  0C03FE32   [1]  00
  can0  0C03FE32   [1]  00
  can0  0C03FE32   [1]  00
  can0  0C03FE32   [1]  00
  can0  0C03FE32   [1]  00
  can0  0C03FE32   [1]  00
  can0  0C03FE32   [1]  00
  can0  0C03FE32   [1]  00
  can0  0C0B0032   [4]  C0 A7 0B 00
  can0  0C03FE32   [1]  00
  can0  0C03FE32   [1]  00
  can0  0C03FE32   [1]  00
  can0  0C03FE32   [1]  00
  can0  0C03FE32   [1]  00
  can0  0C03FE32   [1]  00
  can0  0C03FE32   [1]  00
  can0  0C03FE32   [1]  00
  can0  0C03FE32   [1]  00
  can0  0C0B0032   [4]  B2 AB 0B 00
  can0  0C03FE32   [1]  00
  can0  0C0B0032   [4]  5C AC 0B 00
  can0  0C03FE32   [1]  10
  can0  0C03FE32   [1]  10
  can0  0C03FE32   [1]  10
  can0  0C03FE32   [1]  10
  can0  0C03FE32   [1]  10
  can0  0C03FE32   [1]  10
  can0  0C03FE32   [1]  10
  can0  0C03FE32   [1]  10
  can0  0C03FE32   [1]  10
  can0  0C0B0032   [4]  4E B0 0B 00
  can0  0C03FE32   [1]  10
  can0  0C03FE32   [1]  10
  can0  0C03FE32   [1]  10
  can0  0C03FE32   [1]  10
  can0  0C03FE32   [1]  10
  can0  0C03FE32   [1]  10
  can0  0C03FE32   [1]  10
  can0  0C03FE32   [1]  10
  can0  0C03FE32   [1]  10
  can0  0C03FE32   [1]  10
  can0  0C0B0032   [4]  40 B4 0B 00
  can0  0C03FE32   [1]  10
  can0  0C03FE32   [1]  10
  can0  0C03FE32   [1]  10
  can0  0C03FE32   [1]  10
  can0  0C03FE32   [1]  10
  can0  0C03FE32   [1]  10
  can0  0C03FE32   [1]  10
  can0  0C03FE32   [1]  10
  can0  0C03FE32   [1]  10
  can0  0C0B0032   [4]  32 B8 0B 00
  can0  0C03FE32   [1]  10
  can0  0C03FE32   [1]  10
  can0  0C03FE32   [1]  10
  can0  0C03FE32   [1]  10
  can0  0C03FE32   [1]  10
  can0  0C03FE32   [1]  10
  can0  0C03FE32   [1]  10
  can0  0C03FE32   [1]  10
  can0  0C03FE32   [1]  10
  can0  0C0B0032   [4]  24 BC 0B 00
  can0  0C03FE32   [1]  10
  can0  0C03FE32   [1]  10
  can0  0C03FE32   [1]  10
  can0  0C03FE32   [1]  10
  can0  0C03FE32   [1]  10
  can0  0C03FE32   [1]  10
  can0  0C03FE32   [1]  10
  can0  0C03FE32   [1]  10
  can0  0C03FE32   [1]  10
  can0  0C0B0032   [4]  16 C0 0B 00
  can0  0C03FE32   [1]  10
  can0  0C0B0032   [4]  52 C0 0B 00
  can0  0C03FE32   [1]  14
  can0  0C03FE32   [1]  14
  can0  0C03FE32   [1]  14
  can0  0C03FE32   [1]  14
  can0  0C03FE32   [1]  14
  can0  0C03FE32   [1]  14
  can0  0C03FE32   [1]  14
  can0  0C03FE32   [1]  14
  can0  0C03FE32   [1]  14
  can0  0C0B0032   [4]  44 C4 0B 00
  can0  0C03FE32   [1]  14
  can0  0C03FE32   [1]  14
  can0  0C03FE32   [1]  14
  can0  0C03FE32   [1]  14
  can0  0C03FE32   [1]  14
  can0  0C03FE32   [1]  14
  can0  0C03FE32   [1]  14
  can0  0C03FE32   [1]  14
  can0  0C03FE32   [1]  14
  can0  0C0B0032   [4]  36 C8 0B 00
  can0  0C03FE32   [1]  14
  can0  0C03FE32   [1]  14
  can0  0C03FE32   [1]  14
  can0  0C03FE32   [1]  14
  can0  0C03FE32   [1]  14
  can0  0C03FE32   [1]  14
  can0  0C03FE32   [1]  14
  can0  0C03FE32   [1]  14
  can0  0C03FE32   [1]  14
  can0  0C0B0032   [4]  28 CC 0B 00
  can0  0C03FE32   [1]  14
  can0  0C03FE32   [1]  14
  can0  0C04FE00   [6]  00 00 00 00 06 00
  can0  0C03FE32   [1]  14
  can0  0C03FE32   [1]  14
  can0  0C03FE32   [1]  14
  can0  0C03FE32   [1]  14
  can0  0C03FE32   [1]  14
  can0  0C03FE32   [1]  14
  can0  0C03FE32   [1]  14
  can0  0C0B0032   [4]  1A D0 0B 00
  can0  0C03FE32   [1]  14
  can0  0C03FE32   [1]  14
  can0  0C03FE32   [1]  14
  can0  0C03FE32   [1]  14
  can0  0C03FE32   [1]  14
  can0  0C03FE32   [1]  14
  can0  0C03FE32   [1]  14
  can0  0C03FE32   [1]  14
  can0  0C03FE32   [1]  14
  can0  0C03FE32   [1]  14
  can0  0C0B0032   [4]  0C D4 0B 00
  can0  0C03FE32   [1]  14
  can0  0C03FE32   [1]  14
  can0  0C03FE32   [1]  14
  can0  0C03FE32   [1]  14
  can0  0C03FE32   [1]  14
  can0  0C03FE32   [1]  14
  can0  0C03FE32   [1]  14
  can0  0C03FE32   [1]  14
  can0  0C03FE32   [1]  14
  can0  0C0B0032   [4]  FE D7 0B 00
  can0  0C03FE32   [1]  14
  can0  0C03FE32   [1]  14
  can0  0C03FE32   [1]  14
  can0  0C03FE32   [1]  14
  can0  0C03FE32   [1]  14
  can0  0C03FE32   [1]  14
  can0  0C03FE32   [1]  14
  can0  0C03FE32   [1]  14
  can0  0C03FE32   [1]  14
  can0  0C0B0032   [4]  F0 DB 0B 00
  can0  0C03FE32   [1]  14
  can0  0C03FE32   [1]  14
  can0  0C0B0032   [4]  B8 DC 0B 00
  can0  0C03FE32   [1]  14
  can0  0C03FE32   [1]  14
  can0  0C03FE32   [1]  14
  can0  0C03FE32   [1]  14
  can0  0C03FE32   [1]  14
  can0  0C03FE32   [1]  14
  can0  0C03FE32   [1]  14
  can0  0C03FE32   [1]  14
  can0  0C03FE32   [1]  14
  can0  0C0B0032   [4]  AA E0 0B 00
  can0  0C03FE32   [1]  14
  can0  0C03FE32   [1]  14
  can0  0C03FE32   [1]  14
  can0  0C03FE32   [1]  14
  can0  0C03FE32   [1]  14
  can0  0C03FE32   [1]  14
  can0  0C03FE32   [1]  14
  can0  0C03FE32   [1]  14
  can0  0C03FE32   [1]  14
  can0  0C0B0032   [4]  9C E4 0B 00
  can0  0C03FE32   [1]  14
RESULT: PASS (18 pass, 0 fail, 0 skip)
